T3278 000:007.752   SEGGER J-Link V6.86 Log File
T3278 000:007.985   DLL Compiled: Sep 24 2020 17:31:31
T3278 000:007.995   Logging started @ 2024-04-13 15:53
T3278 000:008.003 - 8.007ms
T3278 000:008.022 JLINK_SetWarnOutHandler(...)
T3278 000:008.036 - 0.018ms
T3278 000:008.047 JLINK_OpenEx(...)
T3278 000:010.552   Firmware: J-Link V9 compiled Dec 13 2019 11:14:50
T3278 000:010.738   Decompressing FW timestamp took 144 us
T3278 000:016.963   Hardware: V9.60
T3278 000:017.030   S/N: 69603068
T3278 000:017.046   OEM: SEGGER
T3278 000:017.064   Feature(s): GDB, RDI, FlashBP, FlashDL, JFlash
T3278 000:018.612   TELNET listener socket opened on port 19021
T3278 000:018.966   WEBSRV Starting webserver
T3278 000:019.265   WEBSRV Webserver running on local port 19080
T3278 000:019.287 - 11.245ms returns "O.K."
T3278 000:019.309 JLINK_GetEmuCaps()
T3278 000:019.345 - 0.041ms returns 0xB9FF7BBF
T3278 000:019.363 JLINK_TIF_GetAvailable(...)
T3278 000:019.535 - 0.188ms
T3278 000:019.568 JLINK_SetErrorOutHandler(...)
T3278 000:019.575 - 0.010ms
T3278 000:019.591 JLINK_ExecCommand("ProjectFile = "G:\0.SZ_HanNeng\CMS_M7510_DC_V0301_20230919(44-58V)\CMS_M7510_DC_V0301_20230919(44-58V)\keil\CMS32M7510\JLinkSettings.ini"", ...). 
T3278 000:049.059   Device "CORTEX-M33" selected.
T3278 000:049.753 - 30.175ms returns 0x00
T3278 000:063.772 JLINK_ExecCommand("Device = CMS32M75xxGK64FB", ...). 
T3278 000:072.986   Device "CORTEX-M33" selected.
T3278 000:074.563 - 10.778ms returns 0x00
T3278 000:074.627 JLINK_GetHardwareVersion()
T3278 000:074.639 - 0.018ms returns 96000
T3278 000:074.667 JLINK_GetDLLVersion()
T3278 000:074.679 - 0.017ms returns 68600
T3278 000:074.691 JLINK_GetOEMString(...)
T3278 000:074.705 JLINK_GetFirmwareString(...)
T3278 000:074.716 - 0.017ms
T3278 000:113.674 JLINK_GetDLLVersion()
T3278 000:113.707 - 0.037ms returns 68600
T3278 000:113.720 JLINK_GetCompileDateTime()
T3278 000:113.729 - 0.013ms
T3278 000:117.402 JLINK_GetFirmwareString(...)
T3278 000:117.432 - 0.034ms
T3278 000:122.464 JLINK_GetHardwareVersion()
T3278 000:122.510 - 0.049ms returns 96000
T3278 000:125.167 JLINK_GetSN()
T3278 000:125.189 - 0.025ms returns 69603068
T3278 000:127.713 JLINK_GetOEMString(...)
T3278 000:133.267 JLINK_TIF_Select(JLINKARM_TIF_SWD)
T3278 000:134.002 - 0.749ms returns 0x00
T3278 000:134.023 JLINK_HasError()
T3278 000:134.037 JLINK_SetSpeed(5000)
T3278 000:134.169 - 0.142ms
T3278 000:134.190 JLINK_GetId()
T3278 000:137.621   Found SW-DP with ID 0x1BE12AEB
T3278 000:139.252   Old FW that does not support reading DPIDR via DAP jobs
T3278 000:142.144   Unknown DP version. Assuming DPv0
T3278 000:145.650   Scanning AP map to find all available APs
T3278 000:148.726   AP[1]: Stopped AP scan as end of AP map has been reached
T3278 000:151.272   AP[0]: AHB-AP (IDR: 0x1AEB0015)
T3278 000:153.575   Iterating through AP map to find AHB-AP to use
T3278 000:157.284   AP[0]: Core found
T3278 000:160.765   AP[0]: AHB-AP ROM base: 0xE00FE000
T3278 000:181.593   CPUID register: 0x631F1320. Implementer code: 0x63 (ARM China)
T3278 000:184.790   Found STAR r1p0, Little endian.
T3278 000:289.482   Identified core does not match configuration. (Found: STAR, Configured: Cortex-M33)
T3278 000:290.128   -- Max. mem block: 0x00010BD0
T3278 000:290.829   CPU_ReadMem(4 bytes @ 0xE000EDF0)
T3278 000:291.355   CPU_WriteMem(4 bytes @ 0xE000EDF0)
T3278 000:291.749   CPU_ReadMem(4 bytes @ 0xE0002000)
T3278 000:298.974   FPUnit: 8 code (BP) slots and 0 literal slots
T3278 000:299.042   CPU_ReadMem(4 bytes @ 0xE000EDFC)
T3278 000:299.380   CPU_WriteMem(4 bytes @ 0xE000EDFC)
T3278 000:299.728   CPU_ReadMem(4 bytes @ 0xE0001000)
T3278 000:300.084   CPU_WriteMem(4 bytes @ 0xE0001000)
T3278 000:300.444   CPU_ReadMem(4 bytes @ 0xE000ED88)
T3278 000:300.789   CPU_WriteMem(4 bytes @ 0xE000ED88)
T3278 000:301.141   CPU_ReadMem(4 bytes @ 0xE000ED88)
T3278 000:301.598   CPU_WriteMem(4 bytes @ 0xE000ED88)
T3278 000:302.077   CPU_ReadMem(4 bytes @ 0xE000EFB8)
T3278 000:307.062   Security extension: not implemented
T3278 000:311.265   CoreSight components:
T3278 000:314.253   ROMTbl[0] @ E00FE000
T3278 000:314.293   CPU_ReadMem(64 bytes @ 0xE00FE000)
T3278 000:315.089   CPU_ReadMem(32 bytes @ 0xE00FFFE0)
T3278 000:324.154   ROMTbl[0][0]: E00FF000, CID: B105100D, PID: 001F5132 ROM Table
T3278 000:327.203   ROMTbl[1] @ E00FF000
T3278 000:327.227   CPU_ReadMem(64 bytes @ 0xE00FF000)
T3278 000:327.847   CPU_ReadMem(32 bytes @ 0xE000EFE0)
T3278 000:328.344   CPU_ReadMem(4 bytes @ 0xE000EFBC)
T3278 000:329.205   CPU_ReadMem(4 bytes @ 0xE000EFCC)
T3278 000:331.973   ROMTbl[1][0]: E000E000, CID: B105900D, PID: 001F5132 ???
T3278 000:331.994   CPU_ReadMem(32 bytes @ 0xE0001FE0)
T3278 000:332.490   CPU_ReadMem(4 bytes @ 0xE0001FBC)
T3278 000:332.823   CPU_ReadMem(4 bytes @ 0xE0001FCC)
T3278 000:336.249   ROMTbl[1][1]: E0001000, CID: B105900D, PID: 000F5132 DWT
T3278 000:336.283   CPU_ReadMem(32 bytes @ 0xE0002FE0)
T3278 000:337.268   CPU_ReadMem(4 bytes @ 0xE0002FBC)
T3278 000:337.653   CPU_ReadMem(4 bytes @ 0xE0002FCC)
T3278 000:340.391   ROMTbl[1][2]: E0002000, CID: B105900D, PID: 000F5132 FPB
T3278 000:340.410   CPU_ReadMem(32 bytes @ 0xE0000FE0)
T3278 000:341.316   CPU_ReadMem(4 bytes @ 0xE0000FBC)
T3278 000:342.267   CPU_ReadMem(4 bytes @ 0xE0000FCC)
T3278 000:345.068   ROMTbl[1][3]: E0000000, CID: B105900D, PID: 000F5132 ITM
T3278 000:345.088   CPU_ReadMem(32 bytes @ 0xE0040FE0)
T3278 000:345.740   CPU_ReadMem(4 bytes @ 0xE0040FBC)
T3278 000:346.311   CPU_ReadMem(4 bytes @ 0xE0040FCC)
T3278 000:349.279   ROMTbl[0][1]: E0040000, CID: B105900D, PID: 000F5132 ???
T3278 000:349.575 - 215.397ms returns 0x1BE12AEB
T3278 000:349.631 JLINK_GetDLLVersion()
T3278 000:349.639 - 0.030ms returns 68600
T3278 000:349.667 JLINK_CORE_GetFound()
T3278 000:349.673 - 0.010ms returns 0xE0400FF
T3278 000:349.682 JLINK_GetDebugInfo(0x100 = JLINKARM_ROM_TABLE_ADDR_INDEX)
T3278 000:349.690   Value=0xE00FE000
T3278 000:349.700 - 0.020ms returns 0
T3278 000:352.625 JLINK_GetDebugInfo(0x100 = JLINKARM_ROM_TABLE_ADDR_INDEX)
T3278 000:352.657   Value=0xE00FE000
T3278 000:352.667 - 0.045ms returns 0
T3278 000:352.676 JLINK_GetDebugInfo(0x101 = JLINKARM_DEBUG_INFO_ETM_ADDR_INDEX)
T3278 000:352.683   Value=0x00000000
T3278 000:352.692 - 0.019ms returns 0
T3278 000:352.704 JLINK_ReadMemEx(0xE0041FF0, 0x10 Bytes, Flags = 0x02000004)
T3278 000:352.728   CPU_ReadMem(16 bytes @ 0xE0041FF0)
T3278 000:353.125   Data:  00 00 00 00 00 00 00 00 00 00 00 00 00 00 00 00
T3278 000:353.162 - 0.461ms returns 16 (0x10)
T3278 000:353.172 JLINK_GetDebugInfo(0x102 = JLINKARM_DEBUG_INFO_MTB_ADDR_INDEX)
T3278 000:353.180   Value=0x00000000
T3278 000:353.189 - 0.020ms returns 0
T3278 000:353.196 JLINK_GetDebugInfo(0x103 = JLINKARM_DEBUG_INFO_TPIU_ADDR_INDEX)
T3278 000:353.205   Value=0x00000000
T3278 000:353.214 - 0.021ms returns 0
T3278 000:353.221 JLINK_ReadMemEx(0xE0040FF0, 0x10 Bytes, Flags = 0x02000004)
T3278 000:353.232   CPU_ReadMem(16 bytes @ 0xE0040FF0)
T3278 000:353.610   Data:  0D 00 00 00 90 00 00 00 05 00 00 00 B1 00 00 00
T3278 000:353.640 - 0.421ms returns 16 (0x10)
T3278 000:353.649 JLINK_GetDebugInfo(0x104 = JLINKARM_DEBUG_INFO_ITM_ADDR_INDEX)
T3278 000:353.656   Value=0xE0000000
T3278 000:353.665 - 0.019ms returns 0
T3278 000:353.673 JLINK_GetDebugInfo(0x105 = JLINKARM_DEBUG_INFO_DWT_ADDR_INDEX)
T3278 000:353.679   Value=0xE0001000
T3278 000:353.688 - 0.018ms returns 0
T3278 000:353.696 JLINK_GetDebugInfo(0x106 = JLINKARM_DEBUG_INFO_FPB_ADDR_INDEX)
T3278 000:353.702   Value=0xE0002000
T3278 000:353.711 - 0.018ms returns 0
T3278 000:353.718 JLINK_GetDebugInfo(0x107 = JLINKARM_DEBUG_INFO_NVIC_ADDR_INDEX)
T3278 000:353.725   Value=0xE000E000
T3278 000:353.738 - 0.023ms returns 0
T3278 000:353.746 JLINK_GetDebugInfo(0x10C = JLINKARM_DEBUG_INFO_DBG_ADDR_INDEX)
T3278 000:353.752   Value=0xE000EDF0
T3278 000:353.761 - 0.018ms returns 0
T3278 000:353.769 JLINK_GetDebugInfo(0x01 = Unknown)
T3278 000:353.775   Value=0x00000001
T3278 000:353.802 - 0.037ms returns 0
T3278 000:353.810 JLINK_ReadMemU32(0xE000ED00, 0x1 Items)
T3278 000:353.825   CPU_ReadMem(4 bytes @ 0xE000ED00)
T3278 000:354.192   Data:  20 13 1F 63
T3278 000:354.209   Debug reg: CPUID
T3278 000:354.218 - 0.411ms returns 1 (0x1)
T3278 000:354.228 JLINK_GetDebugInfo(0x10F = JLINKARM_DEBUG_INFO_HAS_CORTEX_M_SECURITY_EXT_INDEX)
T3278 000:354.235   Value=0x00000000
T3278 000:354.244 - 0.019ms returns 0
T3278 000:354.252 JLINK_HasError()
T3278 000:354.260 JLINK_SetResetType(JLINKARM_CM3_RESET_TYPE_NORMAL)
T3278 000:354.269 - 0.012ms returns JLINKARM_CM3_RESET_TYPE_NORMAL
T3278 000:354.276 JLINK_Reset()
T3278 000:354.294   CPU is running
T3278 000:354.305   CPU_WriteMem(4 bytes @ 0xE000EDF0)
T3278 000:354.685   CPU_ReadMem(4 bytes @ 0xE000EE08)
T3278 000:355.025   CPU is running
T3278 000:355.042   CPU_WriteMem(4 bytes @ 0xE000EE08)
T3278 000:355.364   CPU is running
T3278 000:355.381   CPU_WriteMem(4 bytes @ 0xE000EDFC)
T3278 000:360.631   Reset: Halt core after reset via DEMCR.VC_CORERESET.
T3278 000:370.557   Reset: Reset device via AIRCR.SYSRESETREQ.
T3278 000:370.597   CPU is running
T3278 000:370.613   CPU_WriteMem(4 bytes @ 0xE000ED0C)
T3278 000:424.214   CPU_ReadMem(4 bytes @ 0xE000EDF0)
T3278 000:424.583   CPU_ReadMem(4 bytes @ 0xE000EDF0)
T3278 000:424.901   CPU is running
T3278 000:424.921   CPU_WriteMem(4 bytes @ 0xE000EDF0)
T3278 000:425.230   CPU is running
T3278 000:425.246   CPU_WriteMem(4 bytes @ 0xE000EDFC)
T3278 000:431.400   CPU_ReadMem(4 bytes @ 0xE000EDF0)
T3278 000:434.650   CPU_ReadMem(4 bytes @ 0xE000EE08)
T3278 000:435.006   CPU_WriteMem(4 bytes @ 0xE0002000)
T3278 000:435.369   CPU_ReadMem(4 bytes @ 0xE000EDFC)
T3278 000:435.732   CPU_ReadMem(4 bytes @ 0xE0001000)
T3278 000:436.079   CPU_ReadMem(4 bytes @ 0xE000EE08)
T3278 000:436.402 - 82.138ms
T3278 000:436.428 JLINK_Halt()
T3278 000:436.437 - 0.028ms returns 0x00
T3278 000:436.462 JLINK_ReadMemU32(0xE000EDF0, 0x1 Items)
T3278 000:436.519   CPU_ReadMem(4 bytes @ 0xE000EDF0)
T3278 000:436.849   Data:  03 00 03 00
T3278 000:436.868   Debug reg: DHCSR
T3278 000:436.878 - 0.418ms returns 1 (0x1)
T3278 000:436.892 JLINK_WriteU32_64(0xE000EDF0, 0xA05F0003)
T3278 000:436.901   Debug reg: DHCSR
T3278 000:436.923   CPU_WriteMem(4 bytes @ 0xE000EDF0)
T3278 000:437.260 - 0.377ms returns 0 (0x00000000)
T3278 000:437.277 JLINK_WriteU32_64(0xE000EDFC, 0x01000000)
T3278 000:437.286   Debug reg: DEMCR
T3278 000:437.302   CPU_WriteMem(4 bytes @ 0xE000EDFC)
T3278 000:437.714 - 0.463ms returns 0 (0x00000000)
T3278 000:461.734 JLINK_GetHWStatus(...)
T3278 000:461.982 - 0.260ms returns 0
T3278 000:474.224 JLINK_GetNumBPUnits(Type = 0xFFFFFF00)
T3278 000:474.261 - 0.041ms returns 0x08
T3278 000:474.270 JLINK_GetNumBPUnits(Type = 0xF0)
T3278 000:474.277 - 0.010ms returns 0x2000
T3278 000:474.284 JLINK_GetNumWPUnits()
T3278 000:474.291 - 0.009ms returns 4
T3278 000:481.208 JLINK_GetSpeed()
T3278 000:481.259 - 0.055ms returns 4000
T3278 000:491.168 JLINK_ReadMemU32(0xE000E004, 0x1 Items)
T3278 000:491.207   CPU_ReadMem(4 bytes @ 0xE000E004)
T3278 000:491.586   Data:  07 00 00 00
T3278 000:491.621 - 0.456ms returns 1 (0x1)
T3278 000:491.636 JLINK_Halt()
T3278 000:491.646 - 0.014ms returns 0x00
T3278 000:491.657 JLINK_IsHalted()
T3278 000:491.667 - 0.026ms returns TRUE
T3278 000:494.721 JLINK_WriteMem(0x20004000, 0x120 Bytes, ...)
T3278 000:494.735   Data:  00 BE 0A E0 0D 78 2D 06 68 40 08 24 40 00 00 D3 ...
T3278 000:495.041   CPU_WriteMem(288 bytes @ 0x20004000)
T3278 000:496.853 - 2.209ms returns 0x120
T3278 000:496.958 JLINK_HasError()
T3278 000:496.968 JLINK_WriteReg(R0, 0x00000000)
T3278 000:496.979   CPU_ReadMem(4 bytes @ 0xE000EE08)
T3278 000:497.434 - 0.479ms returns 0
T3278 000:497.454 JLINK_WriteReg(R1, 0x00B71B00)
T3278 000:497.466 - 0.015ms returns 0
T3278 000:497.473 JLINK_WriteReg(R2, 0x00000001)
T3278 000:497.481 - 0.011ms returns 0
T3278 000:497.489 JLINK_WriteReg(R3, 0x00000000)
T3278 000:497.496 - 0.010ms returns 0
T3278 000:497.503 JLINK_WriteReg(R4, 0x00000000)
T3278 000:497.511 - 0.010ms returns 0
T3278 000:497.521 JLINK_WriteReg(R5, 0x00000000)
T3278 000:497.531 - 0.013ms returns 0
T3278 000:497.538 JLINK_WriteReg(R6, 0x00000000)
T3278 000:497.545 - 0.010ms returns 0
T3278 000:497.553 JLINK_WriteReg(R7, 0x00000000)
T3278 000:497.560 - 0.011ms returns 0
T3278 000:497.567 JLINK_WriteReg(R8, 0x00000000)
T3278 000:497.578 - 0.014ms returns 0
T3278 000:497.586 JLINK_WriteReg(R9, 0x2000411C)
T3278 000:497.593 - 0.010ms returns 0
T3278 000:497.600 JLINK_WriteReg(R10, 0x00000000)
T3278 000:497.608 - 0.010ms returns 0
T3278 000:497.615 JLINK_WriteReg(R11, 0x00000000)
T3278 000:497.622 - 0.010ms returns 0
T3278 000:497.629 JLINK_WriteReg(R12, 0x00000000)
T3278 000:497.637 - 0.010ms returns 0
T3278 000:497.644 JLINK_WriteReg(R13 (SP), 0x20005000)
T3278 000:497.652 - 0.011ms returns 0
T3278 000:497.660 JLINK_WriteReg(R14, 0x20004001)
T3278 000:497.667 - 0.010ms returns 0
T3278 000:497.674 JLINK_WriteReg(R15 (PC), 0x20004038)
T3278 000:497.683 - 0.012ms returns 0
T3278 000:497.691 JLINK_WriteReg(XPSR, 0x01000000)
T3278 000:497.698 - 0.010ms returns 0
T3278 000:497.705 JLINK_WriteReg(MSP, 0x20005000)
T3278 000:497.712 - 0.010ms returns 0
T3278 000:497.720 JLINK_WriteReg(PSP, 0x20005000)
T3278 000:497.727 - 0.010ms returns 0
T3278 000:497.735 JLINK_WriteReg(CFBP, 0x00000000)
T3278 000:497.742 - 0.010ms returns 0
T3278 000:497.749 JLINK_SetBPEx(Addr = 0x20004000, Type = 0xFFFFFFF2)
T3278 000:497.758 - 0.011ms returns 0x00000001
T3278 000:497.765 JLINK_Go()
T3278 000:497.775   CPU_WriteMem(4 bytes @ 0xE0002000)
T3278 000:498.180   CPU_ReadMem(4 bytes @ 0xE0001000)
T3278 000:498.607   CPU_WriteMem(4 bytes @ 0xE0002008)
T3278 000:498.636   CPU_WriteMem(4 bytes @ 0xE000200C)
T3278 000:498.646   CPU_WriteMem(4 bytes @ 0xE0002010)
T3278 000:498.656   CPU_WriteMem(4 bytes @ 0xE0002014)
T3278 000:498.666   CPU_WriteMem(4 bytes @ 0xE0002018)
T3278 000:498.675   CPU_WriteMem(4 bytes @ 0xE000201C)
T3278 000:498.685   CPU_WriteMem(4 bytes @ 0xE0002020)
T3278 000:498.694   CPU_WriteMem(4 bytes @ 0xE0002024)
T3278 000:500.134   CPU_WriteMem(4 bytes @ 0xE0001004)
T3278 000:502.429 - 4.687ms
T3278 000:502.467 JLINK_IsHalted()
T3278 000:504.564 - 2.108ms returns TRUE
T3278 000:504.582 JLINK_ReadReg(R15 (PC))
T3278 000:504.593   CPU_ReadMem(4 bytes @ 0xE000EE08)
T3278 000:504.962 - 0.386ms returns 0x20004000
T3278 000:504.974 JLINK_ClrBPEx(BPHandle = 0x00000001)
T3278 000:504.982 - 0.011ms returns 0x00
T3278 000:504.989 JLINK_ReadReg(R0)
T3278 000:504.997 - 0.011ms returns 0x00000000
T3278 000:505.283 JLINK_HasError()
T3278 000:505.296 JLINK_WriteReg(R0, 0x00000000)
T3278 000:505.306 - 0.013ms returns 0
T3278 000:505.314 JLINK_WriteReg(R1, 0x00B71B00)
T3278 000:505.321 - 0.011ms returns 0
T3278 000:505.329 JLINK_WriteReg(R2, 0x00000001)
T3278 000:505.336 - 0.010ms returns 0
T3278 000:505.344 JLINK_WriteReg(R3, 0x00000000)
T3278 000:505.351 - 0.010ms returns 0
T3278 000:505.358 JLINK_WriteReg(R4, 0x00000000)
T3278 000:505.365 - 0.010ms returns 0
T3278 000:505.373 JLINK_WriteReg(R5, 0x00000000)
T3278 000:505.380 - 0.010ms returns 0
T3278 000:505.387 JLINK_WriteReg(R6, 0x00000000)
T3278 000:505.394 - 0.010ms returns 0
T3278 000:505.402 JLINK_WriteReg(R7, 0x00000000)
T3278 000:505.409 - 0.010ms returns 0
T3278 000:505.416 JLINK_WriteReg(R8, 0x00000000)
T3278 000:505.424 - 0.010ms returns 0
T3278 000:505.431 JLINK_WriteReg(R9, 0x2000411C)
T3278 000:505.438 - 0.010ms returns 0
T3278 000:505.445 JLINK_WriteReg(R10, 0x00000000)
T3278 000:505.453 - 0.010ms returns 0
T3278 000:505.460 JLINK_WriteReg(R11, 0x00000000)
T3278 000:505.467 - 0.010ms returns 0
T3278 000:505.474 JLINK_WriteReg(R12, 0x00000000)
T3278 000:505.482 - 0.010ms returns 0
T3278 000:505.489 JLINK_WriteReg(R13 (SP), 0x20005000)
T3278 000:505.497 - 0.011ms returns 0
T3278 000:505.506 JLINK_WriteReg(R14, 0x20004001)
T3278 000:505.513 - 0.010ms returns 0
T3278 000:505.520 JLINK_WriteReg(R15 (PC), 0x20004058)
T3278 000:505.528 - 0.010ms returns 0
T3278 000:505.535 JLINK_WriteReg(XPSR, 0x01000000)
T3278 000:505.542 - 0.050ms returns 0
T3278 000:505.593 JLINK_WriteReg(MSP, 0x20005000)
T3278 000:505.601 - 0.011ms returns 0
T3278 000:505.609 JLINK_WriteReg(PSP, 0x20005000)
T3278 000:505.616 - 0.010ms returns 0
T3278 000:505.624 JLINK_WriteReg(CFBP, 0x00000000)
T3278 000:505.631 - 0.010ms returns 0
T3278 000:505.638 JLINK_SetBPEx(Addr = 0x20004000, Type = 0xFFFFFFF2)
T3278 000:505.646 - 0.011ms returns 0x00000002
T3278 000:505.654 JLINK_Go()
T3278 000:505.664   CPU_WriteMem(4 bytes @ 0xE0002000)
T3278 000:506.082   CPU_ReadMem(4 bytes @ 0xE0001000)
T3278 000:508.557 - 2.985ms
T3278 000:508.655 JLINK_IsHalted()
T3278 000:509.222 - 0.647ms returns FALSE
T3278 000:509.329 JLINK_HasError()
T3278 000:535.778 JLINK_IsHalted()
T3278 000:536.207 - 0.485ms returns FALSE
T3278 000:536.289 JLINK_HasError()
T3278 000:537.900 JLINK_IsHalted()
T3278 000:538.568 - 0.684ms returns FALSE
T3278 000:538.592 JLINK_HasError()
T3278 000:539.852 JLINK_IsHalted()
T3278 000:540.314 - 0.499ms returns FALSE
T3278 000:540.380 JLINK_HasError()
T3278 000:541.802 JLINK_IsHalted()
T3278 000:543.782 - 2.019ms returns TRUE
T3278 000:543.828 JLINK_ReadReg(R15 (PC))
T3278 000:543.841   CPU_ReadMem(4 bytes @ 0xE000EE08)
T3278 000:544.287 - 0.469ms returns 0x20004000
T3278 000:544.305 JLINK_ClrBPEx(BPHandle = 0x00000002)
T3278 000:544.314 - 0.013ms returns 0x00
T3278 000:544.323 JLINK_ReadReg(R0)
T3278 000:544.332 - 0.012ms returns 0x00000000
T3278 000:597.902 JLINK_HasError()
T3278 000:597.937 JLINK_WriteReg(R0, 0x00000001)
T3278 000:597.952 - 0.019ms returns 0
T3278 000:597.961 JLINK_WriteReg(R1, 0x00B71B00)
T3278 000:597.970 - 0.012ms returns 0
T3278 000:597.978 JLINK_WriteReg(R2, 0x00000001)
T3278 000:597.986 - 0.011ms returns 0
T3278 000:597.995 JLINK_WriteReg(R3, 0x00000000)
T3278 000:598.004 - 0.012ms returns 0
T3278 000:598.012 JLINK_WriteReg(R4, 0x00000000)
T3278 000:598.020 - 0.011ms returns 0
T3278 000:598.028 JLINK_WriteReg(R5, 0x00000000)
T3278 000:598.036 - 0.011ms returns 0
T3278 000:598.044 JLINK_WriteReg(R6, 0x00000000)
T3278 000:598.052 - 0.011ms returns 0
T3278 000:598.060 JLINK_WriteReg(R7, 0x00000000)
T3278 000:598.068 - 0.011ms returns 0
T3278 000:598.076 JLINK_WriteReg(R8, 0x00000000)
T3278 000:598.083 - 0.011ms returns 0
T3278 000:598.091 JLINK_WriteReg(R9, 0x2000411C)
T3278 000:598.099 - 0.011ms returns 0
T3278 000:598.107 JLINK_WriteReg(R10, 0x00000000)
T3278 000:598.115 - 0.011ms returns 0
T3278 000:598.123 JLINK_WriteReg(R11, 0x00000000)
T3278 000:598.131 - 0.011ms returns 0
T3278 000:598.139 JLINK_WriteReg(R12, 0x00000000)
T3278 000:598.147 - 0.011ms returns 0
T3278 000:598.155 JLINK_WriteReg(R13 (SP), 0x20005000)
T3278 000:598.164 - 0.012ms returns 0
T3278 000:598.172 JLINK_WriteReg(R14, 0x20004001)
T3278 000:598.180 - 0.011ms returns 0
T3278 000:598.188 JLINK_WriteReg(R15 (PC), 0x2000404C)
T3278 000:598.196 - 0.011ms returns 0
T3278 000:598.204 JLINK_WriteReg(XPSR, 0x01000000)
T3278 000:598.212 - 0.011ms returns 0
T3278 000:598.220 JLINK_WriteReg(MSP, 0x20005000)
T3278 000:598.230 - 0.013ms returns 0
T3278 000:598.238 JLINK_WriteReg(PSP, 0x20005000)
T3278 000:598.246 - 0.011ms returns 0
T3278 000:598.254 JLINK_WriteReg(CFBP, 0x00000000)
T3278 000:598.262 - 0.011ms returns 0
T3278 000:598.270 JLINK_SetBPEx(Addr = 0x20004000, Type = 0xFFFFFFF2)
T3278 000:598.279 - 0.012ms returns 0x00000003
T3278 000:598.287 JLINK_Go()
T3278 000:598.299   CPU_WriteMem(4 bytes @ 0xE0002000)
T3278 000:598.621   CPU_ReadMem(4 bytes @ 0xE0001000)
T3278 000:601.428 - 3.258ms
T3278 000:601.577 JLINK_IsHalted()
T3278 000:603.794 - 2.269ms returns TRUE
T3278 000:603.860 JLINK_ReadReg(R15 (PC))
T3278 000:603.880   CPU_ReadMem(4 bytes @ 0xE000EE08)
T3278 000:604.305 - 0.474ms returns 0x20004000
T3278 000:604.343 JLINK_ClrBPEx(BPHandle = 0x00000003)
T3278 000:604.354 - 0.015ms returns 0x00
T3278 000:604.363 JLINK_ReadReg(R0)
T3278 000:604.373 - 0.013ms returns 0x00000000
T3278 000:621.407 JLINK_WriteMem(0x20004000, 0x120 Bytes, ...)
T3278 000:621.431   Data:  00 BE 0A E0 0D 78 2D 06 68 40 08 24 40 00 00 D3 ...
T3278 000:621.526   CPU_WriteMem(288 bytes @ 0x20004000)
T3278 000:623.253 - 1.857ms returns 0x120
T3278 000:623.297 JLINK_HasError()
T3278 000:623.309 JLINK_WriteReg(R0, 0x00000000)
T3278 000:623.322 - 0.017ms returns 0
T3278 000:623.331 JLINK_WriteReg(R1, 0x00B71B00)
T3278 000:623.340 - 0.013ms returns 0
T3278 000:623.349 JLINK_WriteReg(R2, 0x00000002)
T3278 000:623.358 - 0.014ms returns 0
T3278 000:623.368 JLINK_WriteReg(R3, 0x00000000)
T3278 000:623.377 - 0.012ms returns 0
T3278 000:623.386 JLINK_WriteReg(R4, 0x00000000)
T3278 000:623.394 - 0.012ms returns 0
T3278 000:623.403 JLINK_WriteReg(R5, 0x00000000)
T3278 000:623.412 - 0.012ms returns 0
T3278 000:623.420 JLINK_WriteReg(R6, 0x00000000)
T3278 000:623.429 - 0.012ms returns 0
T3278 000:623.438 JLINK_WriteReg(R7, 0x00000000)
T3278 000:623.446 - 0.012ms returns 0
T3278 000:623.455 JLINK_WriteReg(R8, 0x00000000)
T3278 000:623.464 - 0.012ms returns 0
T3278 000:623.472 JLINK_WriteReg(R9, 0x2000411C)
T3278 000:623.481 - 0.012ms returns 0
T3278 000:623.489 JLINK_WriteReg(R10, 0x00000000)
T3278 000:623.498 - 0.012ms returns 0
T3278 000:623.507 JLINK_WriteReg(R11, 0x00000000)
T3278 000:623.515 - 0.012ms returns 0
T3278 000:623.524 JLINK_WriteReg(R12, 0x00000000)
T3278 000:623.533 - 0.012ms returns 0
T3278 000:623.541 JLINK_WriteReg(R13 (SP), 0x20005000)
T3278 000:623.551 - 0.013ms returns 0
T3278 000:623.560 JLINK_WriteReg(R14, 0x20004001)
T3278 000:623.568 - 0.012ms returns 0
T3278 000:623.577 JLINK_WriteReg(R15 (PC), 0x20004038)
T3278 000:623.586 - 0.012ms returns 0
T3278 000:623.594 JLINK_WriteReg(XPSR, 0x01000000)
T3278 000:623.603 - 0.012ms returns 0
T3278 000:623.611 JLINK_WriteReg(MSP, 0x20005000)
T3278 000:623.620 - 0.012ms returns 0
T3278 000:623.628 JLINK_WriteReg(PSP, 0x20005000)
T3278 000:623.637 - 0.012ms returns 0
T3278 000:623.646 JLINK_WriteReg(CFBP, 0x00000000)
T3278 000:623.654 - 0.012ms returns 0
T3278 000:623.664 JLINK_SetBPEx(Addr = 0x20004000, Type = 0xFFFFFFF2)
T3278 000:623.673 - 0.013ms returns 0x00000004
T3278 000:623.682 JLINK_Go()
T3278 000:623.693   CPU_WriteMem(4 bytes @ 0xE0002000)
T3278 000:624.046   CPU_ReadMem(4 bytes @ 0xE0001000)
T3278 000:626.498 - 2.831ms
T3278 000:626.520 JLINK_IsHalted()
T3278 000:628.698 - 2.281ms returns TRUE
T3278 000:628.826 JLINK_ReadReg(R15 (PC))
T3278 000:628.864   CPU_ReadMem(4 bytes @ 0xE000EE08)
T3278 000:629.405 - 0.631ms returns 0x20004000
T3278 000:629.478 JLINK_ClrBPEx(BPHandle = 0x00000004)
T3278 000:629.509 - 0.039ms returns 0x00
T3278 000:629.526 JLINK_ReadReg(R0)
T3278 000:629.540 - 0.017ms returns 0x00000000
T3278 000:629.960 JLINK_WriteMem(0x20004120, 0x200 Bytes, ...)
T3278 000:629.976   Data:  F8 2E 00 20 B5 04 00 00 BF 04 00 00 C1 04 00 00 ...
T3278 000:629.995   CPU_WriteMem(512 bytes @ 0x20004120)
T3278 000:632.713 - 2.833ms returns 0x200
T3278 000:632.818 JLINK_HasError()
T3278 000:632.837 JLINK_WriteReg(R0, 0x00000000)
T3278 000:632.873 - 0.043ms returns 0
T3278 000:632.887 JLINK_WriteReg(R1, 0x00000200)
T3278 000:632.915 - 0.033ms returns 0
T3278 000:632.925 JLINK_WriteReg(R2, 0x20004120)
T3278 000:632.935 - 0.014ms returns 0
T3278 000:632.944 JLINK_WriteReg(R3, 0x00000000)
T3278 000:632.954 - 0.013ms returns 0
T3278 000:632.967 JLINK_WriteReg(R4, 0x00000000)
T3278 000:632.978 - 0.016ms returns 0
T3278 000:632.989 JLINK_WriteReg(R5, 0x00000000)
T3278 000:633.000 - 0.015ms returns 0
T3278 000:633.009 JLINK_WriteReg(R6, 0x00000000)
T3278 000:633.018 - 0.013ms returns 0
T3278 000:633.028 JLINK_WriteReg(R7, 0x00000000)
T3278 000:633.037 - 0.014ms returns 0
T3278 000:633.047 JLINK_WriteReg(R8, 0x00000000)
T3278 000:633.057 - 0.014ms returns 0
T3278 000:633.066 JLINK_WriteReg(R9, 0x2000411C)
T3278 000:633.079 - 0.027ms returns 0
T3278 000:633.098 JLINK_WriteReg(R10, 0x00000000)
T3278 000:633.105 - 0.010ms returns 0
T3278 000:633.170 JLINK_WriteReg(R11, 0x00000000)
T3278 000:633.180 - 0.013ms returns 0
T3278 000:633.188 JLINK_WriteReg(R12, 0x00000000)
T3278 000:633.196 - 0.010ms returns 0
T3278 000:633.294 JLINK_WriteReg(R13 (SP), 0x20005000)
T3278 000:633.311 - 0.021ms returns 0
T3278 000:633.319 JLINK_WriteReg(R14, 0x20004001)
T3278 000:633.326 - 0.011ms returns 0
T3278 000:633.334 JLINK_WriteReg(R15 (PC), 0x200040D4)
T3278 000:633.344 - 0.013ms returns 0
T3278 000:633.351 JLINK_WriteReg(XPSR, 0x01000000)
T3278 000:633.359 - 0.010ms returns 0
T3278 000:633.366 JLINK_WriteReg(MSP, 0x20005000)
T3278 000:633.374 - 0.011ms returns 0
T3278 000:633.382 JLINK_WriteReg(PSP, 0x20005000)
T3278 000:633.390 - 0.011ms returns 0
T3278 000:633.398 JLINK_WriteReg(CFBP, 0x00000000)
T3278 000:633.406 - 0.011ms returns 0
T3278 000:633.415 JLINK_SetBPEx(Addr = 0x20004000, Type = 0xFFFFFFF2)
T3278 000:633.426 - 0.014ms returns 0x00000005
T3278 000:633.439 JLINK_Go()
T3278 000:633.464   CPU_WriteMem(4 bytes @ 0xE0002000)
T3278 000:633.923   CPU_ReadMem(4 bytes @ 0xE0001000)
T3278 000:636.497 - 3.086ms
T3278 000:636.532 JLINK_IsHalted()
T3278 000:636.846 - 0.338ms returns FALSE
T3278 000:636.878 JLINK_HasError()
T3278 000:644.874 JLINK_IsHalted()
T3278 000:645.271 - 0.406ms returns FALSE
T3278 000:645.288 JLINK_HasError()
T3278 000:646.781 JLINK_IsHalted()
T3278 000:647.083 - 0.312ms returns FALSE
T3278 000:647.100 JLINK_HasError()
T3278 000:649.859 JLINK_IsHalted()
T3278 000:650.262 - 0.413ms returns FALSE
T3278 000:650.280 JLINK_HasError()
T3278 000:651.858 JLINK_IsHalted()
T3278 000:652.282 - 0.448ms returns FALSE
T3278 000:652.320 JLINK_HasError()
T3278 000:654.341 JLINK_IsHalted()
T3278 000:654.871 - 0.550ms returns FALSE
T3278 000:654.898 JLINK_HasError()
T3278 000:656.338 JLINK_IsHalted()
T3278 000:656.876 - 0.581ms returns FALSE
T3278 000:656.940 JLINK_HasError()
T3278 000:658.626 JLINK_IsHalted()
T3278 000:659.015 - 0.402ms returns FALSE
T3278 000:659.034 JLINK_HasError()
T3278 000:660.233 JLINK_IsHalted()
T3278 000:660.638 - 0.415ms returns FALSE
T3278 000:660.655 JLINK_HasError()
T3278 000:662.555 JLINK_IsHalted()
T3278 000:664.596 - 2.055ms returns TRUE
T3278 000:664.617 JLINK_ReadReg(R15 (PC))
T3278 000:664.629   CPU_ReadMem(4 bytes @ 0xE000EE08)
T3278 000:665.011 - 0.433ms returns 0x20004000
T3278 000:665.059 JLINK_ClrBPEx(BPHandle = 0x00000005)
T3278 000:665.072 - 0.016ms returns 0x00
T3278 000:665.080 JLINK_ReadReg(R0)
T3278 000:665.090 - 0.013ms returns 0x00000000
T3278 000:667.578 JLINK_WriteMem(0x20004120, 0x200 Bytes, ...)
T3278 000:667.626   Data:  E1 13 00 00 E9 13 00 00 F1 13 00 00 F9 13 00 00 ...
T3278 000:667.659   CPU_WriteMem(512 bytes @ 0x20004120)
T3278 000:670.640 - 3.231ms returns 0x200
T3278 000:670.858 JLINK_HasError()
T3278 000:670.885 JLINK_WriteReg(R0, 0x00000200)
T3278 000:670.994 - 0.150ms returns 0
T3278 000:671.047 JLINK_WriteReg(R1, 0x00000200)
T3278 000:671.063 - 0.030ms returns 0
T3278 000:671.105 JLINK_WriteReg(R2, 0x20004120)
T3278 000:671.118 - 0.020ms returns 0
T3278 000:671.131 JLINK_WriteReg(R3, 0x00000000)
T3278 000:671.143 - 0.020ms returns 0
T3278 000:671.159 JLINK_WriteReg(R4, 0x00000000)
T3278 000:671.174 - 0.023ms returns 0
T3278 000:671.191 JLINK_WriteReg(R5, 0x00000000)
T3278 000:671.204 - 0.021ms returns 0
T3278 000:671.222 JLINK_WriteReg(R6, 0x00000000)
T3278 000:671.240 - 0.030ms returns 0
T3278 000:671.264 JLINK_WriteReg(R7, 0x00000000)
T3278 000:671.285 - 0.043ms returns 0
T3278 000:671.322 JLINK_WriteReg(R8, 0x00000000)
T3278 000:671.344 - 0.038ms returns 0
T3278 000:671.375 JLINK_WriteReg(R9, 0x2000411C)
T3278 000:671.409 - 0.076ms returns 0
T3278 000:671.472 JLINK_WriteReg(R10, 0x00000000)
T3278 000:671.506 - 0.046ms returns 0
T3278 000:671.532 JLINK_WriteReg(R11, 0x00000000)
T3278 000:671.575 - 0.059ms returns 0
T3278 000:671.607 JLINK_WriteReg(R12, 0x00000000)
T3278 000:671.637 - 0.057ms returns 0
T3278 000:671.674 JLINK_WriteReg(R13 (SP), 0x20005000)
T3278 000:671.693 - 0.025ms returns 0
T3278 000:671.709 JLINK_WriteReg(R14, 0x20004001)
T3278 000:671.727 - 0.025ms returns 0
T3278 000:671.740 JLINK_WriteReg(R15 (PC), 0x200040D4)
T3278 000:671.749 - 0.012ms returns 0
T3278 000:671.837 JLINK_WriteReg(XPSR, 0x01000000)
T3278 000:671.863 - 0.051ms returns 0
T3278 000:671.897 JLINK_WriteReg(MSP, 0x20005000)
T3278 000:671.910 - 0.019ms returns 0
T3278 000:671.922 JLINK_WriteReg(PSP, 0x20005000)
T3278 000:671.934 - 0.018ms returns 0
T3278 000:671.947 JLINK_WriteReg(CFBP, 0x00000000)
T3278 000:671.958 - 0.017ms returns 0
T3278 000:671.972 JLINK_SetBPEx(Addr = 0x20004000, Type = 0xFFFFFFF2)
T3278 000:671.989 - 0.029ms returns 0x00000006
T3278 000:672.017 JLINK_Go()
T3278 000:672.049   CPU_WriteMem(4 bytes @ 0xE0002000)
T3278 000:672.641   CPU_ReadMem(4 bytes @ 0xE0001000)
T3278 000:675.813 - 3.909ms
T3278 000:675.975 JLINK_IsHalted()
T3278 000:676.386 - 0.434ms returns FALSE
T3278 000:676.445 JLINK_HasError()
T3278 000:678.402 JLINK_IsHalted()
T3278 000:678.842 - 0.456ms returns FALSE
T3278 000:678.869 JLINK_HasError()
T3278 000:680.132 JLINK_IsHalted()
T3278 000:680.592 - 0.502ms returns FALSE
T3278 000:680.647 JLINK_HasError()
T3278 000:682.687 JLINK_IsHalted()
T3278 000:683.296 - 0.658ms returns FALSE
T3278 000:683.362 JLINK_HasError()
T3278 000:684.678 JLINK_IsHalted()
T3278 000:685.174 - 0.530ms returns FALSE
T3278 000:685.225 JLINK_HasError()
T3278 000:686.579 JLINK_IsHalted()
T3278 000:687.052 - 0.513ms returns FALSE
T3278 000:687.108 JLINK_HasError()
T3278 000:688.348 JLINK_IsHalted()
T3278 000:688.941 - 0.626ms returns FALSE
T3278 000:688.986 JLINK_HasError()
T3278 000:690.234 JLINK_IsHalted()
T3278 000:690.617 - 0.401ms returns FALSE
T3278 000:690.644 JLINK_HasError()
T3278 000:692.072 JLINK_IsHalted()
T3278 000:692.648 - 0.628ms returns FALSE
T3278 000:692.714 JLINK_HasError()
T3278 000:694.013 JLINK_IsHalted()
T3278 000:694.471 - 0.467ms returns FALSE
T3278 000:694.487 JLINK_HasError()
T3278 000:696.006 JLINK_IsHalted()
T3278 000:696.754 - 0.754ms returns FALSE
T3278 000:696.767 JLINK_HasError()
T3278 000:698.295 JLINK_IsHalted()
T3278 000:698.613 - 0.325ms returns FALSE
T3278 000:698.626 JLINK_HasError()
T3278 000:700.642 JLINK_IsHalted()
T3278 000:702.714 - 2.126ms returns TRUE
T3278 000:702.804 JLINK_ReadReg(R15 (PC))
T3278 000:702.838   CPU_ReadMem(4 bytes @ 0xE000EE08)
T3278 000:703.310 - 0.539ms returns 0x20004000
T3278 000:703.357 JLINK_ClrBPEx(BPHandle = 0x00000006)
T3278 000:703.372 - 0.020ms returns 0x00
T3278 000:703.383 JLINK_ReadReg(R0)
T3278 000:703.397 - 0.018ms returns 0x00000000
T3278 000:704.871 JLINK_WriteMem(0x20004120, 0x200 Bytes, ...)
T3278 000:704.901   Data:  7B 3F EB FF EF FF FF FF 41 F6 91 3C C2 F2 00 0C ...
T3278 000:704.939   CPU_WriteMem(512 bytes @ 0x20004120)
T3278 000:707.916 - 3.070ms returns 0x200
T3278 000:707.952 JLINK_HasError()
T3278 000:707.963 JLINK_WriteReg(R0, 0x00000400)
T3278 000:707.989 - 0.030ms returns 0
T3278 000:707.999 JLINK_WriteReg(R1, 0x00000200)
T3278 000:708.008 - 0.013ms returns 0
T3278 000:708.017 JLINK_WriteReg(R2, 0x20004120)
T3278 000:708.026 - 0.012ms returns 0
T3278 000:708.035 JLINK_WriteReg(R3, 0x00000000)
T3278 000:708.043 - 0.012ms returns 0
T3278 000:708.052 JLINK_WriteReg(R4, 0x00000000)
T3278 000:708.071 - 0.028ms returns 0
T3278 000:708.085 JLINK_WriteReg(R5, 0x00000000)
T3278 000:708.094 - 0.012ms returns 0
T3278 000:708.103 JLINK_WriteReg(R6, 0x00000000)
T3278 000:708.111 - 0.012ms returns 0
T3278 000:708.120 JLINK_WriteReg(R7, 0x00000000)
T3278 000:708.128 - 0.012ms returns 0
T3278 000:708.137 JLINK_WriteReg(R8, 0x00000000)
T3278 000:708.145 - 0.012ms returns 0
T3278 000:708.154 JLINK_WriteReg(R9, 0x2000411C)
T3278 000:708.162 - 0.012ms returns 0
T3278 000:708.171 JLINK_WriteReg(R10, 0x00000000)
T3278 000:708.179 - 0.012ms returns 0
T3278 000:708.188 JLINK_WriteReg(R11, 0x00000000)
T3278 000:708.196 - 0.012ms returns 0
T3278 000:708.205 JLINK_WriteReg(R12, 0x00000000)
T3278 000:708.213 - 0.012ms returns 0
T3278 000:708.222 JLINK_WriteReg(R13 (SP), 0x20005000)
T3278 000:708.232 - 0.013ms returns 0
T3278 000:708.240 JLINK_WriteReg(R14, 0x20004001)
T3278 000:708.249 - 0.012ms returns 0
T3278 000:708.258 JLINK_WriteReg(R15 (PC), 0x200040D4)
T3278 000:708.274 - 0.019ms returns 0
T3278 000:708.282 JLINK_WriteReg(XPSR, 0x01000000)
T3278 000:708.291 - 0.012ms returns 0
T3278 000:708.299 JLINK_WriteReg(MSP, 0x20005000)
T3278 000:708.308 - 0.012ms returns 0
T3278 000:708.316 JLINK_WriteReg(PSP, 0x20005000)
T3278 000:708.325 - 0.012ms returns 0
T3278 000:708.334 JLINK_WriteReg(CFBP, 0x00000000)
T3278 000:708.342 - 0.012ms returns 0
T3278 000:708.351 JLINK_SetBPEx(Addr = 0x20004000, Type = 0xFFFFFFF2)
T3278 000:708.361 - 0.013ms returns 0x00000007
T3278 000:708.371 JLINK_Go()
T3278 000:708.384   CPU_WriteMem(4 bytes @ 0xE0002000)
T3278 000:709.177   CPU_ReadMem(4 bytes @ 0xE0001000)
T3278 000:712.673 - 4.308ms
T3278 000:712.686 JLINK_IsHalted()
T3278 000:713.447 - 0.766ms returns FALSE
T3278 000:713.459 JLINK_HasError()
T3278 000:714.972 JLINK_IsHalted()
T3278 000:715.280 - 0.314ms returns FALSE
T3278 000:715.292 JLINK_HasError()
T3278 000:716.995 JLINK_IsHalted()
T3278 000:717.770 - 0.781ms returns FALSE
T3278 000:717.782 JLINK_HasError()
T3278 000:719.892 JLINK_IsHalted()
T3278 000:720.308 - 0.424ms returns FALSE
T3278 000:720.323 JLINK_HasError()
T3278 000:721.875 JLINK_IsHalted()
T3278 000:722.272 - 0.403ms returns FALSE
T3278 000:722.285 JLINK_HasError()
T3278 000:723.568 JLINK_IsHalted()
T3278 000:724.321 - 0.760ms returns FALSE
T3278 000:724.334 JLINK_HasError()
T3278 000:725.572 JLINK_IsHalted()
T3278 000:725.867 - 0.308ms returns FALSE
T3278 000:725.888 JLINK_HasError()
T3278 000:727.569 JLINK_IsHalted()
T3278 000:728.348 - 0.785ms returns FALSE
T3278 000:728.361 JLINK_HasError()
T3278 000:729.613 JLINK_IsHalted()
T3278 000:729.971 - 0.364ms returns FALSE
T3278 000:729.983 JLINK_HasError()
T3278 000:731.604 JLINK_IsHalted()
T3278 000:731.926 - 0.328ms returns FALSE
T3278 000:731.938 JLINK_HasError()
T3278 000:733.338 JLINK_IsHalted()
T3278 000:733.745 - 0.413ms returns FALSE
T3278 000:733.757 JLINK_HasError()
T3278 000:735.363 JLINK_IsHalted()
T3278 000:735.665 - 0.315ms returns FALSE
T3278 000:735.686 JLINK_HasError()
T3278 000:737.330 JLINK_IsHalted()
T3278 000:739.332 - 2.012ms returns TRUE
T3278 000:739.349 JLINK_ReadReg(R15 (PC))
T3278 000:739.362   CPU_ReadMem(4 bytes @ 0xE000EE08)
T3278 000:739.741 - 0.398ms returns 0x20004000
T3278 000:739.754 JLINK_ClrBPEx(BPHandle = 0x00000007)
T3278 000:739.764 - 0.013ms returns 0x00
T3278 000:739.773 JLINK_ReadReg(R0)
T3278 000:739.782 - 0.013ms returns 0x00000000
T3278 000:740.250 JLINK_WriteMem(0x20004120, 0x200 Bytes, ...)
T3278 000:740.265   Data:  FE E7 FE E7 FE E7 FE E7 FE E7 FE E7 FE E7 FE E7 ...
T3278 000:740.284   CPU_WriteMem(512 bytes @ 0x20004120)
T3278 000:743.020 - 2.816ms returns 0x200
T3278 000:743.083 JLINK_HasError()
T3278 000:743.099 JLINK_WriteReg(R0, 0x00000600)
T3278 000:743.135 - 0.044ms returns 0
T3278 000:743.150 JLINK_WriteReg(R1, 0x00000200)
T3278 000:743.161 - 0.015ms returns 0
T3278 000:743.170 JLINK_WriteReg(R2, 0x20004120)
T3278 000:743.181 - 0.016ms returns 0
T3278 000:743.192 JLINK_WriteReg(R3, 0x00000000)
T3278 000:743.200 - 0.013ms returns 0
T3278 000:743.212 JLINK_WriteReg(R4, 0x00000000)
T3278 000:743.220 - 0.012ms returns 0
T3278 000:743.230 JLINK_WriteReg(R5, 0x00000000)
T3278 000:743.241 - 0.017ms returns 0
T3278 000:743.254 JLINK_WriteReg(R6, 0x00000000)
T3278 000:743.264 - 0.013ms returns 0
T3278 000:743.274 JLINK_WriteReg(R7, 0x00000000)
T3278 000:743.285 - 0.015ms returns 0
T3278 000:743.294 JLINK_WriteReg(R8, 0x00000000)
T3278 000:743.304 - 0.018ms returns 0
T3278 000:743.343 JLINK_WriteReg(R9, 0x2000411C)
T3278 000:743.352 - 0.013ms returns 0
T3278 000:743.361 JLINK_WriteReg(R10, 0x00000000)
T3278 000:743.370 - 0.013ms returns 0
T3278 000:743.378 JLINK_WriteReg(R11, 0x00000000)
T3278 000:743.387 - 0.013ms returns 0
T3278 000:743.396 JLINK_WriteReg(R12, 0x00000000)
T3278 000:743.406 - 0.013ms returns 0
T3278 000:743.416 JLINK_WriteReg(R13 (SP), 0x20005000)
T3278 000:743.428 - 0.016ms returns 0
T3278 000:743.438 JLINK_WriteReg(R14, 0x20004001)
T3278 000:743.465 - 0.039ms returns 0
T3278 000:743.483 JLINK_WriteReg(R15 (PC), 0x200040D4)
T3278 000:743.494 - 0.014ms returns 0
T3278 000:743.502 JLINK_WriteReg(XPSR, 0x01000000)
T3278 000:743.513 - 0.015ms returns 0
T3278 000:743.523 JLINK_WriteReg(MSP, 0x20005000)
T3278 000:743.533 - 0.014ms returns 0
T3278 000:743.543 JLINK_WriteReg(PSP, 0x20005000)
T3278 000:743.554 - 0.015ms returns 0
T3278 000:743.564 JLINK_WriteReg(CFBP, 0x00000000)
T3278 000:743.573 - 0.013ms returns 0
T3278 000:743.585 JLINK_SetBPEx(Addr = 0x20004000, Type = 0xFFFFFFF2)
T3278 000:743.599 - 0.018ms returns 0x00000008
T3278 000:743.608 JLINK_Go()
T3278 000:743.644   CPU_WriteMem(4 bytes @ 0xE0002000)
T3278 000:744.244   CPU_ReadMem(4 bytes @ 0xE0001000)
T3278 000:746.946 - 3.383ms
T3278 000:747.009 JLINK_IsHalted()
T3278 000:747.377 - 0.386ms returns FALSE
T3278 000:747.409 JLINK_HasError()
T3278 000:748.761 JLINK_IsHalted()
T3278 000:749.361 - 0.623ms returns FALSE
T3278 000:749.392 JLINK_HasError()
T3278 000:750.651 JLINK_IsHalted()
T3278 000:751.126 - 0.521ms returns FALSE
T3278 000:751.185 JLINK_HasError()
T3278 000:752.653 JLINK_IsHalted()
T3278 000:753.334 - 0.731ms returns FALSE
T3278 000:753.405 JLINK_HasError()
T3278 000:764.599 JLINK_IsHalted()
T3278 000:765.222 - 0.634ms returns FALSE
T3278 000:765.240 JLINK_HasError()
T3278 000:766.508 JLINK_IsHalted()
T3278 000:766.854 - 0.352ms returns FALSE
T3278 000:766.866 JLINK_HasError()
T3278 000:768.533 JLINK_IsHalted()
T3278 000:768.871 - 0.348ms returns FALSE
T3278 000:768.887 JLINK_HasError()
T3278 000:770.550 JLINK_IsHalted()
T3278 000:771.147 - 0.647ms returns FALSE
T3278 000:771.219 JLINK_HasError()
T3278 000:772.553 JLINK_IsHalted()
T3278 000:774.883 - 2.350ms returns TRUE
T3278 000:774.914 JLINK_ReadReg(R15 (PC))
T3278 000:774.926   CPU_ReadMem(4 bytes @ 0xE000EE08)
T3278 000:775.285 - 0.378ms returns 0x20004000
T3278 000:775.299 JLINK_ClrBPEx(BPHandle = 0x00000008)
T3278 000:775.308 - 0.012ms returns 0x00
T3278 000:775.316 JLINK_ReadReg(R0)
T3278 000:775.325 - 0.012ms returns 0x00000000
T3278 000:775.869 JLINK_WriteMem(0x20004120, 0x200 Bytes, ...)
T3278 000:775.890   Data:  10 B5 40 F2 24 40 C4 F2 02 00 01 68 43 F6 40 34 ...
T3278 000:775.910   CPU_WriteMem(512 bytes @ 0x20004120)
T3278 000:778.749 - 2.907ms returns 0x200
T3278 000:778.787 JLINK_HasError()
T3278 000:778.799 JLINK_WriteReg(R0, 0x00000800)
T3278 000:778.815 - 0.019ms returns 0
T3278 000:778.823 JLINK_WriteReg(R1, 0x00000200)
T3278 000:778.832 - 0.011ms returns 0
T3278 000:778.839 JLINK_WriteReg(R2, 0x20004120)
T3278 000:778.848 - 0.012ms returns 0
T3278 000:778.856 JLINK_WriteReg(R3, 0x00000000)
T3278 000:778.863 - 0.011ms returns 0
T3278 000:778.871 JLINK_WriteReg(R4, 0x00000000)
T3278 000:778.879 - 0.011ms returns 0
T3278 000:778.887 JLINK_WriteReg(R5, 0x00000000)
T3278 000:778.895 - 0.011ms returns 0
T3278 000:778.903 JLINK_WriteReg(R6, 0x00000000)
T3278 000:778.910 - 0.011ms returns 0
T3278 000:778.920 JLINK_WriteReg(R7, 0x00000000)
T3278 000:778.928 - 0.011ms returns 0
T3278 000:778.935 JLINK_WriteReg(R8, 0x00000000)
T3278 000:778.943 - 0.011ms returns 0
T3278 000:778.951 JLINK_WriteReg(R9, 0x2000411C)
T3278 000:778.959 - 0.011ms returns 0
T3278 000:778.966 JLINK_WriteReg(R10, 0x00000000)
T3278 000:778.974 - 0.011ms returns 0
T3278 000:778.982 JLINK_WriteReg(R11, 0x00000000)
T3278 000:778.990 - 0.011ms returns 0
T3278 000:778.997 JLINK_WriteReg(R12, 0x00000000)
T3278 000:779.019 - 0.025ms returns 0
T3278 000:779.027 JLINK_WriteReg(R13 (SP), 0x20005000)
T3278 000:779.036 - 0.013ms returns 0
T3278 000:779.044 JLINK_WriteReg(R14, 0x20004001)
T3278 000:779.052 - 0.011ms returns 0
T3278 000:779.060 JLINK_WriteReg(R15 (PC), 0x200040D4)
T3278 000:779.068 - 0.011ms returns 0
T3278 000:779.076 JLINK_WriteReg(XPSR, 0x01000000)
T3278 000:779.083 - 0.011ms returns 0
T3278 000:779.091 JLINK_WriteReg(MSP, 0x20005000)
T3278 000:779.099 - 0.011ms returns 0
T3278 000:779.106 JLINK_WriteReg(PSP, 0x20005000)
T3278 000:779.114 - 0.011ms returns 0
T3278 000:779.130 JLINK_WriteReg(CFBP, 0x00000000)
T3278 000:779.148 - 0.021ms returns 0
T3278 000:779.157 JLINK_SetBPEx(Addr = 0x20004000, Type = 0xFFFFFFF2)
T3278 000:779.167 - 0.013ms returns 0x00000009
T3278 000:779.175 JLINK_Go()
T3278 000:779.189   CPU_WriteMem(4 bytes @ 0xE0002000)
T3278 000:779.634   CPU_ReadMem(4 bytes @ 0xE0001000)
T3278 000:782.524 - 3.395ms
T3278 000:782.598 JLINK_IsHalted()
T3278 000:782.913 - 0.353ms returns FALSE
T3278 000:782.962 JLINK_HasError()
T3278 000:785.005 JLINK_IsHalted()
T3278 000:785.654 - 0.742ms returns FALSE
T3278 000:785.800 JLINK_HasError()
T3278 000:788.100 JLINK_IsHalted()
T3278 000:788.498 - 0.408ms returns FALSE
T3278 000:788.517 JLINK_HasError()
T3278 000:789.872 JLINK_IsHalted()
T3278 000:790.472 - 0.639ms returns FALSE
T3278 000:790.524 JLINK_HasError()
T3278 000:792.042 JLINK_IsHalted()
T3278 000:792.577 - 0.549ms returns FALSE
T3278 000:792.600 JLINK_HasError()
T3278 000:793.915 JLINK_IsHalted()
T3278 000:794.416 - 0.555ms returns FALSE
T3278 000:794.493 JLINK_HasError()
T3278 000:795.717 JLINK_IsHalted()
T3278 000:796.376 - 0.731ms returns FALSE
T3278 000:796.477 JLINK_HasError()
T3278 000:797.869 JLINK_IsHalted()
T3278 000:798.226 - 0.372ms returns FALSE
T3278 000:798.251 JLINK_HasError()
T3278 000:799.601 JLINK_IsHalted()
T3278 000:799.967 - 0.377ms returns FALSE
T3278 000:799.986 JLINK_HasError()
T3278 000:801.588 JLINK_IsHalted()
T3278 000:801.960 - 0.394ms returns FALSE
T3278 000:801.995 JLINK_HasError()
T3278 000:803.631 JLINK_IsHalted()
T3278 000:804.353 - 0.769ms returns FALSE
T3278 000:804.422 JLINK_HasError()
T3278 000:805.581 JLINK_IsHalted()
T3278 000:805.929 - 0.361ms returns FALSE
T3278 000:805.951 JLINK_HasError()
T3278 000:807.630 JLINK_IsHalted()
T3278 000:810.162 - 2.569ms returns TRUE
T3278 000:810.209 JLINK_ReadReg(R15 (PC))
T3278 000:810.224   CPU_ReadMem(4 bytes @ 0xE000EE08)
T3278 000:810.551 - 0.356ms returns 0x20004000
T3278 000:810.573 JLINK_ClrBPEx(BPHandle = 0x00000009)
T3278 000:810.585 - 0.018ms returns 0x00
T3278 000:810.598 JLINK_ReadReg(R0)
T3278 000:810.609 - 0.015ms returns 0x00000000
T3278 000:811.124 JLINK_WriteMem(0x20004120, 0x200 Bytes, ...)
T3278 000:811.145   Data:  2C 42 C0 F8 28 22 C0 F8 30 52 C3 F8 00 E0 9C 60 ...
T3278 000:811.167   CPU_WriteMem(512 bytes @ 0x20004120)
T3278 000:814.061 - 2.981ms returns 0x200
T3278 000:814.119 JLINK_HasError()
T3278 000:814.131 JLINK_WriteReg(R0, 0x00000A00)
T3278 000:814.149 - 0.022ms returns 0
T3278 000:814.159 JLINK_WriteReg(R1, 0x00000200)
T3278 000:814.173 - 0.019ms returns 0
T3278 000:814.183 JLINK_WriteReg(R2, 0x20004120)
T3278 000:814.192 - 0.013ms returns 0
T3278 000:814.201 JLINK_WriteReg(R3, 0x00000000)
T3278 000:814.210 - 0.012ms returns 0
T3278 000:814.219 JLINK_WriteReg(R4, 0x00000000)
T3278 000:814.229 - 0.013ms returns 0
T3278 000:814.237 JLINK_WriteReg(R5, 0x00000000)
T3278 000:814.246 - 0.012ms returns 0
T3278 000:814.255 JLINK_WriteReg(R6, 0x00000000)
T3278 000:814.264 - 0.013ms returns 0
T3278 000:814.273 JLINK_WriteReg(R7, 0x00000000)
T3278 000:814.282 - 0.013ms returns 0
T3278 000:814.292 JLINK_WriteReg(R8, 0x00000000)
T3278 000:814.300 - 0.012ms returns 0
T3278 000:814.309 JLINK_WriteReg(R9, 0x2000411C)
T3278 000:814.318 - 0.012ms returns 0
T3278 000:814.327 JLINK_WriteReg(R10, 0x00000000)
T3278 000:814.336 - 0.012ms returns 0
T3278 000:814.344 JLINK_WriteReg(R11, 0x00000000)
T3278 000:814.353 - 0.012ms returns 0
T3278 000:814.362 JLINK_WriteReg(R12, 0x00000000)
T3278 000:814.371 - 0.013ms returns 0
T3278 000:814.380 JLINK_WriteReg(R13 (SP), 0x20005000)
T3278 000:814.389 - 0.013ms returns 0
T3278 000:814.398 JLINK_WriteReg(R14, 0x20004001)
T3278 000:814.407 - 0.012ms returns 0
T3278 000:814.416 JLINK_WriteReg(R15 (PC), 0x200040D4)
T3278 000:814.426 - 0.013ms returns 0
T3278 000:814.435 JLINK_WriteReg(XPSR, 0x01000000)
T3278 000:814.443 - 0.012ms returns 0
T3278 000:814.452 JLINK_WriteReg(MSP, 0x20005000)
T3278 000:814.461 - 0.013ms returns 0
T3278 000:814.470 JLINK_WriteReg(PSP, 0x20005000)
T3278 000:814.486 - 0.020ms returns 0
T3278 000:814.495 JLINK_WriteReg(CFBP, 0x00000000)
T3278 000:814.505 - 0.013ms returns 0
T3278 000:814.515 JLINK_SetBPEx(Addr = 0x20004000, Type = 0xFFFFFFF2)
T3278 000:814.529 - 0.018ms returns 0x0000000A
T3278 000:814.538 JLINK_Go()
T3278 000:814.550   CPU_WriteMem(4 bytes @ 0xE0002000)
T3278 000:814.901   CPU_ReadMem(4 bytes @ 0xE0001000)
T3278 000:817.937 - 3.414ms
T3278 000:817.960 JLINK_IsHalted()
T3278 000:818.326 - 0.377ms returns FALSE
T3278 000:818.345 JLINK_HasError()
T3278 000:820.393 JLINK_IsHalted()
T3278 000:820.787 - 0.407ms returns FALSE
T3278 000:820.808 JLINK_HasError()
T3278 000:822.385 JLINK_IsHalted()
T3278 000:822.840 - 0.473ms returns FALSE
T3278 000:822.867 JLINK_HasError()
T3278 000:824.381 JLINK_IsHalted()
T3278 000:824.776 - 0.411ms returns FALSE
T3278 000:824.801 JLINK_HasError()
T3278 000:826.071 JLINK_IsHalted()
T3278 000:826.487 - 0.430ms returns FALSE
T3278 000:826.512 JLINK_HasError()
T3278 000:827.805 JLINK_IsHalted()
T3278 000:828.198 - 0.406ms returns FALSE
T3278 000:828.220 JLINK_HasError()
T3278 000:829.433 JLINK_IsHalted()
T3278 000:829.760 - 0.344ms returns FALSE
T3278 000:829.786 JLINK_HasError()
T3278 000:830.943 JLINK_IsHalted()
T3278 000:831.317 - 0.389ms returns FALSE
T3278 000:831.340 JLINK_HasError()
T3278 000:832.650 JLINK_IsHalted()
T3278 000:832.961 - 0.321ms returns FALSE
T3278 000:832.978 JLINK_HasError()
T3278 000:834.958 JLINK_IsHalted()
T3278 000:835.257 - 0.304ms returns FALSE
T3278 000:835.268 JLINK_HasError()
T3278 000:836.673 JLINK_IsHalted()
T3278 000:837.006 - 0.338ms returns FALSE
T3278 000:837.017 JLINK_HasError()
T3278 000:838.959 JLINK_IsHalted()
T3278 000:839.328 - 0.374ms returns FALSE
T3278 000:839.339 JLINK_HasError()
T3278 000:840.954 JLINK_IsHalted()
T3278 000:841.370 - 0.478ms returns FALSE
T3278 000:841.455 JLINK_HasError()
T3278 000:842.834 JLINK_IsHalted()
T3278 000:845.377 - 2.673ms returns TRUE
T3278 000:845.536 JLINK_ReadReg(R15 (PC))
T3278 000:845.572   CPU_ReadMem(4 bytes @ 0xE000EE08)
T3278 000:846.155 - 0.641ms returns 0x20004000
T3278 000:846.186 JLINK_ClrBPEx(BPHandle = 0x0000000A)
T3278 000:846.199 - 0.016ms returns 0x00
T3278 000:846.210 JLINK_ReadReg(R0)
T3278 000:846.221 - 0.015ms returns 0x00000000
T3278 000:848.154 JLINK_WriteMem(0x20004120, 0x200 Bytes, ...)
T3278 000:848.279   Data:  00 13 D0 F8 00 14 11 40 C0 F8 00 14 01 68 00 22 ...
T3278 000:848.361   CPU_WriteMem(512 bytes @ 0x20004120)
T3278 000:851.308 - 3.195ms returns 0x200
T3278 000:851.365 JLINK_HasError()
T3278 000:851.376 JLINK_WriteReg(R0, 0x00000C00)
T3278 000:851.423 - 0.051ms returns 0
T3278 000:851.434 JLINK_WriteReg(R1, 0x00000200)
T3278 000:851.443 - 0.013ms returns 0
T3278 000:851.451 JLINK_WriteReg(R2, 0x20004120)
T3278 000:851.460 - 0.011ms returns 0
T3278 000:851.468 JLINK_WriteReg(R3, 0x00000000)
T3278 000:851.476 - 0.011ms returns 0
T3278 000:851.484 JLINK_WriteReg(R4, 0x00000000)
T3278 000:851.492 - 0.011ms returns 0
T3278 000:851.500 JLINK_WriteReg(R5, 0x00000000)
T3278 000:851.509 - 0.011ms returns 0
T3278 000:851.517 JLINK_WriteReg(R6, 0x00000000)
T3278 000:851.525 - 0.011ms returns 0
T3278 000:851.533 JLINK_WriteReg(R7, 0x00000000)
T3278 000:851.542 - 0.012ms returns 0
T3278 000:851.550 JLINK_WriteReg(R8, 0x00000000)
T3278 000:851.558 - 0.012ms returns 0
T3278 000:851.566 JLINK_WriteReg(R9, 0x2000411C)
T3278 000:851.575 - 0.011ms returns 0
T3278 000:851.584 JLINK_WriteReg(R10, 0x00000000)
T3278 000:851.600 - 0.020ms returns 0
T3278 000:851.609 JLINK_WriteReg(R11, 0x00000000)
T3278 000:851.617 - 0.012ms returns 0
T3278 000:851.626 JLINK_WriteReg(R12, 0x00000000)
T3278 000:851.634 - 0.012ms returns 0
T3278 000:851.643 JLINK_WriteReg(R13 (SP), 0x20005000)
T3278 000:851.655 - 0.015ms returns 0
T3278 000:851.664 JLINK_WriteReg(R14, 0x20004001)
T3278 000:851.672 - 0.012ms returns 0
T3278 000:851.687 JLINK_WriteReg(R15 (PC), 0x200040D4)
T3278 000:851.696 - 0.013ms returns 0
T3278 000:851.705 JLINK_WriteReg(XPSR, 0x01000000)
T3278 000:851.732 - 0.032ms returns 0
T3278 000:851.754 JLINK_WriteReg(MSP, 0x20005000)
T3278 000:851.764 - 0.014ms returns 0
T3278 000:851.775 JLINK_WriteReg(PSP, 0x20005000)
T3278 000:851.784 - 0.012ms returns 0
T3278 000:851.794 JLINK_WriteReg(CFBP, 0x00000000)
T3278 000:851.804 - 0.014ms returns 0
T3278 000:851.815 JLINK_SetBPEx(Addr = 0x20004000, Type = 0xFFFFFFF2)
T3278 000:851.828 - 0.019ms returns 0x0000000B
T3278 000:851.842 JLINK_Go()
T3278 000:851.862   CPU_WriteMem(4 bytes @ 0xE0002000)
T3278 000:852.398   CPU_ReadMem(4 bytes @ 0xE0001000)
T3278 000:855.276 - 3.488ms
T3278 000:855.354 JLINK_IsHalted()
T3278 000:855.782 - 0.523ms returns FALSE
T3278 000:855.924 JLINK_HasError()
T3278 000:858.008 JLINK_IsHalted()
T3278 000:858.451 - 0.454ms returns FALSE
T3278 000:858.470 JLINK_HasError()
T3278 000:859.806 JLINK_IsHalted()
T3278 000:860.106 - 0.310ms returns FALSE
T3278 000:860.123 JLINK_HasError()
T3278 000:861.807 JLINK_IsHalted()
T3278 000:862.207 - 0.413ms returns FALSE
T3278 000:862.228 JLINK_HasError()
T3278 000:863.597 JLINK_IsHalted()
T3278 000:864.001 - 0.415ms returns FALSE
T3278 000:864.021 JLINK_HasError()
T3278 000:865.445 JLINK_IsHalted()
T3278 000:865.797 - 0.382ms returns FALSE
T3278 000:865.843 JLINK_HasError()
T3278 000:867.471 JLINK_IsHalted()
T3278 000:867.797 - 0.339ms returns FALSE
T3278 000:867.818 JLINK_HasError()
T3278 000:869.423 JLINK_IsHalted()
T3278 000:869.905 - 0.516ms returns FALSE
T3278 000:869.957 JLINK_HasError()
T3278 000:871.295 JLINK_IsHalted()
T3278 000:871.987 - 0.708ms returns FALSE
T3278 000:872.012 JLINK_HasError()
T3278 000:873.241 JLINK_IsHalted()
T3278 000:873.642 - 0.451ms returns FALSE
T3278 000:873.710 JLINK_HasError()
T3278 000:874.989 JLINK_IsHalted()
T3278 000:875.349 - 0.386ms returns FALSE
T3278 000:875.391 JLINK_HasError()
T3278 000:879.216 JLINK_IsHalted()
